 ****** HSPICE -- G-2012.06 32-BIT (May 27 2012) sparcOS5 ******                
  Copyright (C) 2012 Synopsys, Inc. All Rights Reserved.                        
  Unpublished-rights reserved under US copyright laws.
  This program is protected by law and is subject to the
  terms and conditions of the license agreement from Synopsys.
  Use of this program is your acceptance to be bound by the
  license agreement. HSPICE is the trademark of Synopsys, Inc.
  Input File: sram_SG_nm.sp                                                     
  Command line options: sram_SG_nm.sp -o sram_SG_nm.lis
 lic: No 'setenv LM_LICENSE_FILE' in current environment' 
 lic:  
 lic: FLEXlm: v10.8 
 lic: USER:   coimbasn             HOSTNAME: everest.rhod.uc.edu 
 lic: HOSTID: 8300e27a             PID:      27336 
 lic: Using FLEXlm license file: 
 lic: 27000@olympus.ececs.engr.uc.edu 
 lic: Checkout 1 hspice 
 lic: License/Maintenance for hspice will expire on 20-jun-2013/2011.09 
 lic: 1(in_use)/50(total) FLOATING license(s) on SERVER olympus.ececs.engr.uc.ed
 lic:   
 Init: read install configuration file: /opt/CAD/Synopsys/G-2012.06/hspice/hspice/meta.cfg
 Warning: Pd = 0 is less than W.

 Warning: Ps = 0 is less than W.

 Warning: Pd = 0 is less than W.

 Warning: Ps = 0 is less than W.

 Warning: Pd = 0 is less than W.

 Warning: Ps = 0 is less than W.

 Warning: Pd = 0 is less than W.

 Warning: Ps = 0 is less than W.

  

 **warning** the following singular supplies were terminated to 1 meg resistor 
   supply       node1            node2
  evd                     0:vd               defined in subckt 0                     0:0                defined in subckt 0               
      
 *****************************************************************
 ******  option summary
 ******
 runlvl  = 3         bypass  = 2         
  Opening plot unit= 15
 file=sram_SG_nm.pa0                                                           


 **info** rebuilding matrix with pivot option


 **info** rebuilding matrix without pivot option

 ******  
 * hw 6, problem 1, determination of snm graphically

  ******  dc transfer curves tnom=  25.000 temp=  25.000 *****
x

      u         voltage      voltage      voltage      voltage    
                    qd           qbd          v1           v2     
 -777.81746m    350.7431m      1.0999     777.7147m      1.2738   
 -767.81746m    351.0965m      1.0999     787.6292m      1.2643   
 -757.81746m    351.4613m      1.0998     797.4752m      1.2549   
 -747.81746m    351.8379m      1.0996     807.2015m      1.2454   
 -737.81746m    352.2267m      1.0992     816.7245m      1.2359   
 -727.81746m    352.6284m      1.0987     825.9168m      1.2265   
 -717.81746m    353.0434m      1.0977     834.6004m      1.2171   
 -707.81746m    353.4722m      1.0963     842.5548m      1.2077   
 -697.81746m    353.9156m      1.0942     849.5507m      1.1983   
 -687.81746m    354.3741m      1.0912     855.4163m      1.1890   
 -677.81746m    354.8484m      1.0875     860.1822m      1.1796   
 -667.81746m    355.3391m      1.0833     864.2382m      1.1703   
 -657.81746m    355.8472m      1.0788     867.7812m      1.1611   
 -647.81746m    356.3732m      1.0737     870.6391m      1.1518   
 -637.81746m    356.9181m      1.0681     872.7668m      1.1426   
 -627.81746m    357.4828m      1.0621     874.2126m      1.1334   
 -617.81746m    358.0683m      1.0556     875.0453m      1.1242   
 -607.81746m    358.6754m      1.0487     875.3354m      1.1151   
 -597.81746m    359.3053m      1.0415     875.1500m      1.1060   
 -587.81746m    359.9592m      1.0341     874.5515m      1.0969   
 -577.81746m    360.6382m      1.0263     873.5962m      1.0878   
 -567.81746m    361.3439m      1.0183     872.3353m      1.0788   
 -557.81746m    362.0775m      1.0102     870.8146m      1.0699   
 -547.81746m    362.8408m      1.0019     869.0764m      1.0610   
 -537.81746m    363.6357m    993.4692m    867.1601m      1.0521   
 -527.81746m    364.4645m    984.9442m    865.1040m      1.0432   
 -517.81746m    365.3300m    976.3470m    862.9457m      1.0345   
 -507.81746m    366.2358m    967.7023m    860.7202m      1.0258   
 -497.81746m    367.1868m    959.0247m    858.4483m      1.0171   
 -487.81746m    368.1897m    950.3224m    856.1414m      1.0085   
 -477.81746m    369.2525m    941.6195m    853.8337m      1.0000   
 -467.81746m    370.3781m    932.9469m    851.5687m    991.6111m  
 -457.81746m    371.5701m    924.3300m    849.3826m    983.2969m  
 -447.81746m    372.8432m    915.7924m    847.3086m    975.0974m  
 -437.81746m    374.2124m    907.3560m    845.3777m    967.0338m  
 -427.81746m    375.6942m    899.0409m    843.6184m    959.1293m  
 -417.81746m    377.3072m    890.8650m    842.0559m    951.4104m  
 -407.81746m    379.0723m    882.8428m    840.7108m    943.9067m  
 -397.81746m    381.0126m    874.9846m    839.5976m    936.6506m  
 -387.81746m    383.1521m    867.2960m    838.7243m    929.6763m  
 -377.81746m    385.5141m    859.7782m    838.0925m    923.0168m  
 -367.81746m    388.1196m    852.4279m    837.6976m    916.7015m  
 -357.81746m    390.9857m    845.2387m    837.5306m    910.7547m  
 -347.81746m    394.1253m    838.2013m    837.5781m    905.1949m  
 -337.81746m    397.5482m    831.3033m    837.8229m    900.0355m  
 -327.81746m    401.2621m    824.5316m    838.2463m    895.2877m  
 -317.81746m    405.2757m    817.8728m    838.8294m    890.9638m  
 -307.81746m    409.6059m    811.3135m    839.5531m    887.0876m  
 -297.81746m    414.2805m    804.8400m    840.3981m    883.6986m  
 -287.81746m    419.3360m    798.4390m    841.3458m    880.8481m  
 -277.81746m    424.7986m    792.0977m    842.3779m    878.5733m  
 -267.81746m    430.6533m    785.8037m    843.4768m    876.8532m  
 -257.81746m    436.8356m    779.5451m    844.6258m    875.5963m  
 -247.81746m    443.2598m    773.3106m    845.8089m    874.6815m  
 -237.81746m    449.8510m    767.0899m    847.0115m    874.0029m  
 -227.81746m    456.5553m    760.8731m    848.2197m    873.4841m  
 -217.81746m    463.3362m    754.6517m    849.4213m    873.0738m  
 -207.81746m    470.1697m    748.4180m    850.6055m    872.7378m  
 -197.81746m    477.0392m    742.1657m    851.7633m    872.4528m  
 -187.81746m    483.9333m    735.8895m    852.8875m    872.2024m  
 -177.81746m    490.8434m    729.5859m    853.9728m    871.9748m  
 -167.81746m    497.7632m    723.2523m    855.0157m    871.7609m  
 -157.81746m    504.6879m    716.8874m    856.0144m    871.5539m  
 -147.81746m    511.6137m    710.4908m    856.9683m    871.3484m  
 -137.81746m    518.5374m    704.0629m    857.8779m    871.1400m  
 -127.81746m    525.4566m    697.6047m    858.7446m    870.9253m  
 -117.81746m    532.3693m    691.1174m    859.5702m    870.7013m  
 -107.81746m    539.2738m    684.6024m    860.3565m    870.4658m  
  -97.81746m    546.1687m    678.0611m    861.1057m    870.2166m  
  -87.81746m    553.0528m    671.4948m    861.8196m    869.9523m  
  -77.81746m    559.9253m    664.9050m    862.5002m    869.6714m  
  -67.81746m    566.7851m    658.2927m    863.1491m    869.3726m  
  -57.81746m    573.6316m    651.6591m    863.7677m    869.0551m  
  -47.81746m    580.4643m    645.0050m    864.3574m    868.7179m  
  -37.81746m    587.2824m    638.3313m    864.9193m    868.3602m  
  -27.81746m    594.0855m    631.6387m    865.4545m    867.9812m  
  -17.81746m    600.8731m    624.9278m    865.9639m    867.5804m  
   -7.81746m    607.6448m    618.1991m    866.4482m    867.1570m  
    2.18254m    614.4000m    611.4534m    866.9082m    866.7103m  
   12.18254m    621.1384m    604.6909m    867.3446m    866.2398m  
   22.18254m    627.8593m    597.9122m    867.7581m    865.7446m  
   32.18254m    634.5623m    591.1178m    868.1493m    865.2241m  
   42.18254m    641.2468m    584.3080m    868.5189m    864.6774m  
   52.18254m    647.9120m    577.4835m    868.8676m    864.1035m  
   62.18254m    654.5573m    570.6448m    869.1961m    863.5013m  
   72.18254m    661.1817m    563.7923m    869.5053m    862.8696m  
   82.18254m    667.7843m    556.9269m    869.7961m    862.2071m  
   92.18254m    674.3640m    550.0492m    870.0696m    861.5122m  
  102.18254m    680.9195m    543.1603m    870.3272m    860.7831m  
  112.18254m    687.4496m    536.2610m    870.5701m    860.0180m  
  122.18254m    693.9527m    529.3528m    870.8004m    859.2148m  
  132.18254m    700.4275m    522.4370m    871.0200m    858.3715m  
  142.18254m    706.8726m    515.5155m    871.2316m    857.4862m  
  152.18254m    713.2868m    508.5906m    871.4383m    856.5574m  
  162.18254m    719.6696m    501.6649m    871.6438m    855.5840m  
  172.18254m    726.0208m    494.7418m    871.8531m    854.5659m  
  182.18254m    732.3411m    487.8255m    872.0720m    853.5041m  
  192.18254m    738.6323m    480.9215m    872.3083m    852.4013m  
  202.18254m    744.8975m    474.0370m    872.5721m    851.2616m  
  212.18254m    751.1410m    467.1815m    872.8770m    850.0913m  
  222.18254m    757.3685m    460.3686m    873.2421m    848.8983m  
  232.18254m    763.5869m    453.6176m    873.6947m    847.6924m  
  242.18254m    769.8043m    446.9573m    874.2756m    846.4851m  
  252.18254m    776.0298m    440.4311m    875.0462m    845.2893m  
  262.18254m    782.2734m    434.1022m    876.0957m    844.1191m  
  272.18254m    788.5461m    428.0527m    877.5404m    842.9900m  
  282.18254m    794.8592m    422.3637m    879.4951m    841.9182m  
  292.18254m    801.2250m    417.0801m    882.0229m    840.9207m  
  302.18254m    807.6560m    412.1954m    885.1149m    840.0155m  
  312.18254m    814.1653m    407.6753m    888.7224m    839.2211m  
  322.18254m    820.7664m    403.4860m    892.7979m    838.5564m  
  332.18254m    827.4728m    399.6048m    897.3090m    838.0407m  
  342.18254m    834.2980m    396.0188m    902.2376m    837.6930m  
  352.18254m    841.2552m    392.7205m    907.5732m    837.5320m  
  362.18254m    848.3576m    389.7016m    913.3039m    837.5763m  
  372.18254m    855.6161m    386.9512m    919.4141m    837.8413m  
  382.18254m    863.0389m    384.4543m    925.8830m    838.3387m  
  392.18254m    870.6311m    382.1921m    932.6838m    839.0758m  
  402.18254m    878.3941m    380.1425m    939.7853m    840.0543m  
  412.18254m    886.3249m    378.2817m    947.1536m    841.2701m  
  422.18254m    894.4157m    376.5857m    954.7551m    842.7123m  
  432.18254m    902.6544m    375.0324m    962.5585m    844.3635m  
  442.18254m    911.0248m    373.6019m    970.5355m    846.2010m  
  452.18254m    919.5080m    372.2766m    978.6611m    848.1981m  
  462.18254m    928.0830m    371.0407m    986.9133m    850.3250m  
  472.18254m    936.7271m    369.8791m    995.2706m    852.5497m  
  482.18254m    945.4163m    368.7808m      1.0037     854.8381m  
  492.18254m    954.1230m    367.7451m      1.0123     857.1511m  
  502.18254m    962.8163m    366.7658m      1.0209     859.4453m  
  512.18254m    971.4803m    365.8352m      1.0296     861.6981m  
  522.18254m    980.1069m    364.9475m      1.0383     863.8980m  
  532.18254m    988.6759m    364.0984m      1.0471     866.0163m  
  542.18254m    997.1609m    363.2847m      1.0559     868.0160m  
  552.18254m      1.0055     362.5038m      1.0648     869.8593m  
  562.18254m      1.0138     361.7537m      1.0738     871.5075m  
  572.18254m      1.0218     361.0325m      1.0828     872.9202m  
  582.18254m      1.0297     360.3386m      1.0918     874.0537m  
  592.18254m      1.0374     359.6707m      1.1008     874.8598m  
  602.18254m      1.0447     359.0275m      1.1099     875.2852m  
  612.18254m      1.0518     358.4076m      1.1190     875.2711m  
  622.18254m      1.0585     357.8101m      1.1282     874.7529m  
  632.18254m      1.0648     357.2339m      1.1374     873.6611m  
  642.18254m      1.0706     356.6779m      1.1466     871.9256m  
  652.18254m      1.0760     356.1413m      1.1558     869.4823m  
  662.18254m      1.0808     355.6232m      1.1651     866.3095m  
  672.18254m      1.0852     355.1228m      1.1744     862.5267m  
  682.18254m      1.0892     354.6394m      1.1837     858.2193m  
  692.18254m      1.0926     354.1721m      1.1931     853.0003m  
  702.18254m      1.0952     353.7202m      1.2024     846.6283m  
  712.18254m      1.0970     353.2833m      1.2118     839.1874m  
  722.18254m      1.0982     352.8605m      1.2212     830.8859m  
  732.18254m      1.0989     352.4515m      1.2306     821.9552m  
  742.18254m      1.0994     352.0555m      1.2401     812.5996m  
  752.18254m      1.0997     351.6720m      1.2495     802.9751m  
  762.18254m      1.0998     351.3006m      1.2590     793.1885m  
  772.18254m      1.0999     350.9409m      1.2685     783.3077m  
y
-----------------------------------------------
 maxvd= 496.1284m    at=-777.8175m
             from=-777.8175m    to= 772.1825m
 snm= 350.8158m

          ***** job concluded
 ****** HSPICE -- G-2012.06 32-BIT (May 27 2012) sparcOS5 ******                
 ******  
 * hw 6, problem 1, determination of snm graphically

  ******  job statistics summary tnom=  25.000 temp=  25.000 *****

  ******  HSPICE Threads Information  ******

  Command Line Threads Count :     1
  Available CPU Count        :     2
  Actual Threads Count       :     1


  ******  Circuit Statistics  ******
  # nodes       =      50 # elements   =      36
  # resistors   =       1 # capacitors =       2 # inductors   =       0
  # mutual_inds =       0 # vccs       =       0 # vcvs        =      17
  # cccs        =       0 # ccvs       =       0 # volt_srcs   =       4
  # curr_srcs   =       0 # diodes     =       0 # bjts        =       0
  # jfets       =       0 # mosfets    =      12 # U elements  =       0
  # T elements  =       0 # W elements =       0 # B elements  =       0
  # S elements  =       0 # P elements =       0 # va device   =       0
  # vector_srcs =       0 # N elements =       0


  ******  Runtime Statistics (seconds)  ******

  analysis           time    # points   tot. iter  conv.iter
  op point           0.00           1           0
  dc sweep           2.38         156         381
  readin             0.09
  errchk             0.10
  setup              0.00
  output             0.01


           peak memory used         77.70 megabytes
           total cpu time            2.59 seconds
           total elapsed time        3.11 seconds
           job started at     15:39:49 01/14/2013
           job ended   at     15:39:52 01/14/2013


 lic: Release hspice token(s) 
 lic: total license checkout elapse time:        0.30(s)
