 ****** HSPICE -- G-2012.06 32-BIT (May 27 2012) sparcOS5 ******                
  Copyright (C) 2012 Synopsys, Inc. All Rights Reserved.                        
  Unpublished-rights reserved under US copyright laws.
  This program is protected by law and is subject to the
  terms and conditions of the license agreement from Synopsys.
  Use of this program is your acceptance to be bound by the
  license agreement. HSPICE is the trademark of Synopsys, Inc.
  Input File: sram_LP_nm.sp                                                     
  Command line options: sram_LP_nm.sp -o sram_LP_nm.lis
 lic: No 'setenv LM_LICENSE_FILE' in current environment' 
 lic:  
 lic: FLEXlm: v10.8 
 lic: USER:   coimbasn             HOSTNAME: everest.rhod.uc.edu 
 lic: HOSTID: 8300e27a             PID:      27348 
 lic: Using FLEXlm license file: 
 lic: 27000@olympus.ececs.engr.uc.edu 
 lic: Checkout 1 hspice 
 lic: License/Maintenance for hspice will expire on 20-jun-2013/2011.09 
 lic: 1(in_use)/50(total) FLOATING license(s) on SERVER olympus.ececs.engr.uc.ed
 lic:   
 Init: read install configuration file: /opt/CAD/Synopsys/G-2012.06/hspice/hspice/meta.cfg
 Warning: Pd = 0 is less than W.

 Warning: Ps = 0 is less than W.

 Warning: Pd = 0 is less than W.

 Warning: Ps = 0 is less than W.

 Warning: Pd = 0 is less than W.

 Warning: Ps = 0 is less than W.

 Warning: Pd = 0 is less than W.

 Warning: Ps = 0 is less than W.

  

 **warning** the following singular supplies were terminated to 1 meg resistor 
   supply       node1            node2
  evd                     0:vd               defined in subckt 0                     0:0                defined in subckt 0               
      
 *****************************************************************
 ******  option summary
 ******
 runlvl  = 3         bypass  = 2         
  Opening plot unit= 15
 file=sram_LP_nm.pa0                                                           


 **info** rebuilding matrix with pivot option


 **info** rebuilding matrix without pivot option

 ******  
 * hw 6, problem 1, determination of snm graphically

  ******  dc transfer curves tnom=  25.000 temp=  25.000 *****
x

      u         voltage      voltage      voltage      voltage    
                    qd           qbd          v1           v2     
 -777.81746m    307.8003m      1.1000     777.8061m      1.2131   
 -767.81746m    308.1825m      1.1000     787.7996m      1.2037   
 -757.81746m    308.5784m      1.1000     797.7893m      1.1942   
 -747.81746m    308.9887m      1.1000     807.7730m      1.1848   
 -737.81746m    309.4139m      1.1000     817.7475m      1.1754   
 -727.81746m    309.8550m      1.0999     827.7075m      1.1660   
 -717.81746m    310.3126m      1.0999     837.6450m      1.1567   
 -707.81746m    310.7875m      1.0998     847.5478m      1.1473   
 -697.81746m    311.2806m      1.0997     857.3975m      1.1380   
 -687.81746m    311.7928m      1.0995     867.1668m      1.1288   
 -677.81746m    312.3251m      1.0993     876.8167m      1.1195   
 -667.81746m    312.8785m      1.0989     886.2922m      1.1103   
 -657.81746m    313.4543m      1.0984     895.5196m      1.1011   
 -647.81746m    314.0534m      1.0976     904.4050m      1.0920   
 -637.81746m    314.6773m      1.0965     912.8357m      1.0828   
 -627.81746m    315.3274m      1.0950     920.6877m      1.0738   
 -617.81746m    316.0050m      1.0929     927.8375m      1.0647   
 -607.81746m    316.7117m      1.0904     934.1795m      1.0557   
 -597.81746m    317.4493m      1.0871     939.6407m      1.0468   
 -587.81746m    318.2196m      1.0833     944.1897m      1.0378   
 -577.81746m    319.0246m      1.0788     947.8366m      1.0290   
 -567.81746m    319.8664m      1.0737     950.6242m      1.0202   
 -557.81746m    320.7473m      1.0680     952.6156m      1.0114   
 -547.81746m    321.6700m      1.0619     953.8826m      1.0027   
 -537.81746m    322.6370m      1.0552     954.4981m    994.0951m  
 -527.81746m    323.6516m      1.0482     954.5327m    985.5299m  
 -517.81746m    324.7170m      1.0408     954.0524m    977.0366m  
 -507.81746m    325.8371m      1.0330     953.1170m    968.6207m  
 -497.81746m    327.0160m      1.0250     951.7800m    960.2879m  
 -487.81746m    328.2586m      1.0168     950.0884m    952.0452m  
 -477.81746m    329.5704m      1.0083     948.0825m    943.9003m  
 -467.81746m    330.9576m    999.5765m    945.7972m    935.8622m  
 -457.81746m    332.4278m    990.7129m    943.2622m    927.9414m  
 -447.81746m    333.9897m    981.6905m    940.5025m    920.1502m  
 -437.81746m    335.6536m    972.5241m    937.5392m    912.5034m  
 -427.81746m    337.4323m    963.2261m    934.3900m    905.0188m  
 -417.81746m    339.3409m    953.8070m    931.0693m    897.7179m  
 -407.81746m    341.3981m    944.2750m    927.5890m    890.6273m  
 -397.81746m    343.6272m    934.6369m    923.9587m    883.7798m  
 -387.81746m    346.0576m    924.8982m    920.1862m    877.2168m  
 -377.81746m    348.7266m    915.0636m    916.2778m    870.9914m  
 -367.81746m    351.6835m    905.1378m    912.2406m    865.1731m  
 -357.81746m    354.9917m    895.1240m    908.0791m    859.8516m  
 -347.81746m    358.7246m    885.0254m    903.7975m    855.1307m  
 -337.81746m    362.9401m    874.8453m    899.4007m    851.0922m  
 -327.81746m    367.6388m    864.5883m    894.8951m    847.7373m  
 -317.81746m    372.7542m    854.2609m    890.2899m    844.9714m  
 -307.81746m    378.1928m    843.8723m    885.5982m    842.6629m  
 -297.81746m    383.8753m    833.4359m    880.8388m    840.6992m  
 -287.81746m    389.7466m    822.9700m    876.0378m    839.0023m  
 -277.81746m    395.7704m    812.4992m    871.2299m    837.5214m  
 -267.81746m    401.9228m    802.0546m    866.4590m    836.2221m  
 -257.81746m    408.1853m    791.6730m    861.7773m    835.0787m  
 -247.81746m    414.5440m    781.3954m    857.2425m    834.0712m  
 -237.81746m    420.9872m    771.2632m    852.9134m    833.1833m  
 -227.81746m    427.5049m    761.3154m    848.8451m    832.4007m  
 -217.81746m    434.0881m    751.5854m    845.0849m    831.7107m  
 -207.81746m    440.7282m    742.0982m    841.6679m    831.1013m  
 -197.81746m    447.4177m    732.8677m    838.6140m    830.5617m  
 -187.81746m    454.1494m    723.8970m    835.9275m    830.0817m  
 -177.81746m    460.9168m    715.1792m    833.5986m    829.6522m  
 -167.81746m    467.7139m    706.7004m    831.6079m    829.2648m  
 -157.81746m    474.5353m    698.4423m    829.9291m    828.9117m  
 -147.81746m    481.3762m    690.3835m    828.5323m    828.5862m  
 -137.81746m    488.2325m    682.5006m    827.3842m    828.2824m  
 -127.81746m    495.1003m    674.7723m    826.4546m    827.9951m  
 -117.81746m    501.9767m    667.1789m    825.7159m    827.7197m  
 -107.81746m    508.8589m    659.7025m    825.1427m    827.4526m  
  -97.81746m    515.7449m    652.3270m    824.7122m    827.1909m  
  -87.81746m    522.6332m    645.0382m    824.4043m    826.9324m  
  -77.81746m    529.5226m    637.8235m    824.2011m    826.6755m  
  -67.81746m    536.4126m    630.6717m    824.0870m    826.4195m  
  -57.81746m    543.3031m    623.5732m    824.0482m    826.1641m  
  -47.81746m    550.1944m    616.5194m    824.0726m    825.9099m  
  -37.81746m    557.0875m    609.5028m    824.1497m    825.6582m  
  -27.81746m    563.9836m    602.5169m    824.2702m    825.4107m  
  -17.81746m    570.8846m    595.5560m    824.4259m    825.1702m  
   -7.81746m    577.7927m    588.6150m    824.6099m    824.9398m  
    2.18254m    584.7110m    581.6897m    824.8160m    824.7237m  
   12.18254m    591.6427m    574.7762m    825.0389m    824.5265m  
   22.18254m    598.5918m    567.8715m    825.2741m    824.3541m  
   32.18254m    605.5629m    560.9729m    825.5180m    824.2128m  
   42.18254m    612.5615m    554.0783m    825.7676m    824.1102m  
   52.18254m    619.5934m    547.1862m    826.0206m    824.0549m  
   62.18254m    626.6658m    540.2953m    826.2755m    824.0567m  
   72.18254m    633.7864m    533.4050m    826.5312m    824.1268m  
   82.18254m    640.9644m    526.5152m    826.7875m    824.2780m  
   92.18254m    648.2100m    519.6262m    827.0450m    824.5248m  
  102.18254m    655.5350m    512.7388m    827.3047m    824.8839m  
  112.18254m    662.9526m    505.8542m    827.5684m    825.3741m  
  122.18254m    670.4780m    498.9742m    827.8387m    826.0166m  
  132.18254m    678.1280m    492.1012m    828.1188m    826.8353m  
  142.18254m    685.9214m    485.2380m    828.4127m    827.8568m  
  152.18254m    693.8783m    478.3880m    828.7253m    829.1095m  
  162.18254m    702.0212m    471.5550m    829.0620m    830.6254m  
  172.18254m    710.3732m    464.7436m    829.4292m    832.4368m  
  182.18254m    718.9542m    457.9588m    829.8341m    834.5723m  
  192.18254m    727.7811m    451.2062m    830.2845m    837.0554m  
  202.18254m    736.8649m    444.4921m    830.7893m    839.9018m  
  212.18254m    746.2084m    437.8232m    831.3581m    843.1155m  
  222.18254m    755.8040m    431.2070m    832.0013m    846.6858m  
  232.18254m    765.6327m    424.6513m    832.7302m    850.5856m  
  242.18254m    775.6655m    418.1650m    833.5571m    854.7741m  
  252.18254m    785.8662m    411.7573m    834.4954m    859.2001m  
  262.18254m    796.1943m    405.4391m    835.5600m    863.8063m  
  272.18254m    806.6083m    399.2227m    836.7686m    868.5338m  
  282.18254m    817.0685m    393.1239m    838.1438m    873.3269m  
  292.18254m    827.5406m    387.1632m    839.7139m    878.1366m  
  302.18254m    837.9963m    381.3689m    841.5197m    882.9232m  
  312.18254m    848.4138m    375.7847m    843.6224m    887.6558m  
  322.18254m    858.7771m    370.4760m    846.1147m    892.3116m  
  332.18254m    869.0747m    365.5314m    849.1220m    896.8747m  
  342.18254m    879.2988m    361.0389m    852.7686m    901.3337m  
  352.18254m    889.4438m    357.0384m    857.1111m    905.6809m  
  362.18254m    899.5057m    353.4998m    862.1068m    909.9107m  
  372.18254m    909.4814m    350.3537m    867.6575m    914.0184m  
  382.18254m    919.3679m    347.5294m    873.6633m    918.0001m  
  392.18254m    929.1613m    344.9698m    880.0435m    921.8500m  
  402.18254m    938.8567m    342.6313m    886.7364m    925.5613m  
  412.18254m    948.4492m    340.4804m    893.6946m    929.1271m  
  422.18254m    957.9328m    338.4907m    900.8806m    932.5391m  
  432.18254m    967.3002m    336.6409m    908.2646m    935.7865m  
  442.18254m    976.5421m    334.9140m    915.8225m    938.8566m  
  452.18254m    985.6474m    333.2960m    923.5343m    941.7333m  
  462.18254m    994.6025m    331.7753m    931.3837m    944.3978m  
  472.18254m      1.0034     330.3423m    939.3571m    946.8271m  
  482.18254m      1.0120     328.9889m    947.4431m    948.9944m  
  492.18254m      1.0204     327.7080m    955.6317m    950.8677m  
  502.18254m      1.0286     326.4939m    963.9146m    952.4099m  
  512.18254m      1.0364     325.3412m    972.2844m    953.5777m  
  522.18254m      1.0440     324.2454m    980.7348m    954.3214m  
  532.18254m      1.0513     323.2027m    989.2601m    954.5847m  
  542.18254m      1.0582     322.2092m    997.8552m    954.3049m  
  552.18254m      1.0646     321.2619m      1.0065     953.4139m  
  562.18254m      1.0706     320.3578m      1.0152     951.8398m  
  572.18254m      1.0760     319.4943m      1.0240     949.5094m  
  582.18254m      1.0808     318.6688m      1.0328     946.3535m  
  592.18254m      1.0851     317.8793m      1.0417     942.3164m  
  602.18254m      1.0886     317.1235m      1.0507     937.3682m  
  612.18254m      1.0916     316.3995m      1.0596     931.5161m  
  622.18254m      1.0939     315.7057m      1.0687     924.8103m  
  632.18254m      1.0957     315.0403m      1.0777     917.3395m  
  642.18254m      1.0970     314.4019m      1.0868     909.2194m  
  652.18254m      1.0980     313.7889m      1.0959     900.5754m  
  662.18254m      1.0986     313.2001m      1.1051     891.5279m  
  672.18254m      1.0991     312.6343m      1.1143     882.1818m  
  682.18254m      1.0994     312.0902m      1.1235     872.6222m  
  692.18254m      1.0996     311.5668m      1.1328     862.9145m  
  702.18254m      1.0998     311.0630m      1.1421     853.1060m  
  712.18254m      1.0998     310.5780m      1.1514     843.2304m  
  722.18254m      1.0999     310.1107m      1.1607     833.3107m  
  732.18254m      1.0999     309.6605m      1.1701     823.3621m  
  742.18254m      1.1000     309.2264m      1.1795     813.3950m  
  752.18254m      1.1000     308.8078m      1.1889     803.4159m  
  762.18254m      1.1000     308.4039m      1.1983     793.4293m  
  772.18254m      1.1000     308.0140m      1.2078     783.4377m  
y
-----------------------------------------------
 maxvd= 435.3068m    at=-777.8175m
             from=-777.8175m    to= 772.1825m
 snm= 307.8084m

          ***** job concluded
 ****** HSPICE -- G-2012.06 32-BIT (May 27 2012) sparcOS5 ******                
 ******  
 * hw 6, problem 1, determination of snm graphically

  ******  job statistics summary tnom=  25.000 temp=  25.000 *****

  ******  HSPICE Threads Information  ******

  Command Line Threads Count :     1
  Available CPU Count        :     2
  Actual Threads Count       :     1


  ******  Circuit Statistics  ******
  # nodes       =      52 # elements   =      38
  # resistors   =       1 # capacitors =       2 # inductors   =       0
  # mutual_inds =       0 # vccs       =       0 # vcvs        =      17
  # cccs        =       0 # ccvs       =       0 # volt_srcs   =       6
  # curr_srcs   =       0 # diodes     =       0 # bjts        =       0
  # jfets       =       0 # mosfets    =      12 # U elements  =       0
  # T elements  =       0 # W elements =       0 # B elements  =       0
  # S elements  =       0 # P elements =       0 # va device   =       0
  # vector_srcs =       0 # N elements =       0


  ******  Runtime Statistics (seconds)  ******

  analysis           time    # points   tot. iter  conv.iter
  op point           0.00           1           0
  dc sweep           2.71         156         435
  readin             0.09
  errchk             0.11
  setup              0.00
  output             0.00


           peak memory used         77.70 megabytes
           total cpu time            2.91 seconds
           total elapsed time        3.39 seconds
           job started at     15:39:58 01/14/2013
           job ended   at     15:40:02 01/14/2013


 lic: Release hspice token(s) 
 lic: total license checkout elapse time:        0.28(s)
